Time [s], Analyzer Name, Decoded Protocol Result
4.910551583333334,SPI,MOSI: '3' (0x03);  MISO: '0' (0x00)
4.910878916666666,SPI,MOSI: '0' (0x00);  MISO: '0' (0x00)
4.910966666666667,SPI,MOSI: '0' (0x00);  MISO: '0' (0x00)
4.923125666666667,SPI,MOSI: '0' (0x00);  MISO: '222' (0xDE)
4.923572750000000,SPI,MOSI: '0' (0x00);  MISO: '173' (0xAD)
4.923660583333334,SPI,MOSI: '0' (0x00);  MISO: '190' (0xBE)
4.923740416666667,SPI,MOSI: '0' (0x00);  MISO: '239' (0xEF)
4.923828166666667,SPI,MOSI: '0' (0x00);  MISO: C (0x43)
4.923916000000000,SPI,MOSI: '0' (0x00);  MISO: o (0x6F)
4.924003833333333,SPI,MOSI: '0' (0x00);  MISO: n (0x6E)
4.924091666666667,SPI,MOSI: '0' (0x00);  MISO: t (0x74)
4.924179416666667,SPI,MOSI: '0' (0x00);  MISO: r (0x72)
4.924267250000000,SPI,MOSI: '0' (0x00);  MISO: o (0x6F)
4.924347083333333,SPI,MOSI: '0' (0x00);  MISO: l (0x6C)
4.924434916666667,SPI,MOSI: '0' (0x00);  MISO: ' ' (0x20)
4.924522666666666,SPI,MOSI: '0' (0x00);  MISO: T (0x54)
4.924610500000000,SPI,MOSI: '0' (0x00);  MISO: h (0x68)
4.924698333333334,SPI,MOSI: '0' (0x00);  MISO: i (0x69)
4.924786166666666,SPI,MOSI: '0' (0x00);  MISO: n (0x6E)
4.937056500000000,SPI,MOSI: '0' (0x00);  MISO: g (0x67)
4.937136333333333,SPI,MOSI: '0' (0x00);  MISO: s (0x73)
4.937224166666667,SPI,MOSI: '0' (0x00);  MISO: '255' (0xFF)
4.937312000000000,SPI,MOSI: '0' (0x00);  MISO: '255' (0xFF)
4.937399750000000,SPI,MOSI: '0' (0x00);  MISO: '255' (0xFF)
4.937487583333334,SPI,MOSI: '0' (0x00);  MISO: '255' (0xFF)
4.937575333333333,SPI,MOSI: '0' (0x00);  MISO: '255' (0xFF)
4.937663166666667,SPI,MOSI: '0' (0x00);  MISO: '255' (0xFF)
4.937743000000000,SPI,MOSI: '0' (0x00);  MISO: '255' (0xFF)
4.937830833333333,SPI,MOSI: '0' (0x00);  MISO: '255' (0xFF)
4.937918666666667,SPI,MOSI: '0' (0x00);  MISO: '255' (0xFF)
4.938006416666667,SPI,MOSI: '0' (0x00);  MISO: '255' (0xFF)
4.938094250000000,SPI,MOSI: '0' (0x00);  MISO: '255' (0xFF)
4.938182000000000,SPI,MOSI: '0' (0x00);  MISO: '255' (0xFF)
4.938269833333333,SPI,MOSI: '0' (0x00);  MISO: '255' (0xFF)
4.938349666666666,SPI,MOSI: '0' (0x00);  MISO: '255' (0xFF)
4.953102666666667,SPI,MOSI: '0' (0x00);  MISO: '255' (0xFF)
4.953190500000000,SPI,MOSI: '0' (0x00);  MISO: '255' (0xFF)
4.953278333333333,SPI,MOSI: '0' (0x00);  MISO: '255' (0xFF)
4.953366166666667,SPI,MOSI: '0' (0x00);  MISO: '255' (0xFF)
4.953453916666667,SPI,MOSI: '0' (0x00);  MISO: '255' (0xFF)
4.953541750000000,SPI,MOSI: '0' (0x00);  MISO: '255' (0xFF)
4.953621583333334,SPI,MOSI: '0' (0x00);  MISO: '255' (0xFF)
4.953709416666666,SPI,MOSI: '0' (0x00);  MISO: '255' (0xFF)
4.953797166666667,SPI,MOSI: '0' (0x00);  MISO: '255' (0xFF)
4.953885000000000,SPI,MOSI: '0' (0x00);  MISO: '255' (0xFF)
4.953972833333333,SPI,MOSI: '0' (0x00);  MISO: '255' (0xFF)
4.954060583333334,SPI,MOSI: '0' (0x00);  MISO: '255' (0xFF)
4.954140416666666,SPI,MOSI: '0' (0x00);  MISO: '255' (0xFF)
4.954228250000000,SPI,MOSI: '0' (0x00);  MISO: '255' (0xFF)
4.954316000000000,SPI,MOSI: '0' (0x00);  MISO: '255' (0xFF)
4.954403833333333,SPI,MOSI: '0' (0x00);  MISO: '255' (0xFF)
4.969220583333334,SPI,MOSI: '0' (0x00);  MISO: '255' (0xFF)
4.969308416666666,SPI,MOSI: '0' (0x00);  MISO: '255' (0xFF)
4.969396166666667,SPI,MOSI: '0' (0x00);  MISO: '255' (0xFF)
4.969476000000000,SPI,MOSI: '0' (0x00);  MISO: '255' (0xFF)
4.969563833333333,SPI,MOSI: '0' (0x00);  MISO: '255' (0xFF)
4.969651666666667,SPI,MOSI: '0' (0x00);  MISO: '255' (0xFF)
4.969739416666667,SPI,MOSI: '0' (0x00);  MISO: '255' (0xFF)
4.969827250000000,SPI,MOSI: '0' (0x00);  MISO: '255' (0xFF)
4.969915083333333,SPI,MOSI: '0' (0x00);  MISO: '255' (0xFF)
4.970002833333333,SPI,MOSI: '0' (0x00);  MISO: '255' (0xFF)
4.970082666666666,SPI,MOSI: '0' (0x00);  MISO: '255' (0xFF)
4.970170500000000,SPI,MOSI: '0' (0x00);  MISO: '255' (0xFF)
4.970258250000000,SPI,MOSI: '0' (0x00);  MISO: '255' (0xFF)
4.970346083333333,SPI,MOSI: '0' (0x00);  MISO: '255' (0xFF)
4.970433916666667,SPI,MOSI: '0' (0x00);  MISO: '255' (0xFF)
4.970521666666667,SPI,MOSI: '0' (0x00);  MISO: '255' (0xFF)
4.985130916666667,SPI,MOSI: '0' (0x00);  MISO: '255' (0xFF)
4.985226750000000,SPI,MOSI: '0' (0x00);  MISO: '255' (0xFF)
4.985314583333333,SPI,MOSI: '0' (0x00);  MISO: '255' (0xFF)
4.985402333333333,SPI,MOSI: '0' (0x00);  MISO: '255' (0xFF)
4.985490166666667,SPI,MOSI: '0' (0x00);  MISO: '255' (0xFF)
4.985578000000000,SPI,MOSI: '0' (0x00);  MISO: '255' (0xFF)
4.985657833333334,SPI,MOSI: '0' (0x00);  MISO: '255' (0xFF)
4.985745666666666,SPI,MOSI: '0' (0x00);  MISO: '255' (0xFF)
4.985833416666667,SPI,MOSI: '0' (0x00);  MISO: '255' (0xFF)
4.985921250000000,SPI,MOSI: '0' (0x00);  MISO: '255' (0xFF)
4.986009083333333,SPI,MOSI: '0' (0x00);  MISO: '255' (0xFF)
4.986096833333334,SPI,MOSI: '0' (0x00);  MISO: '255' (0xFF)
4.986184666666666,SPI,MOSI: '0' (0x00);  MISO: '255' (0xFF)
4.986264500000000,SPI,MOSI: '0' (0x00);  MISO: '255' (0xFF)
4.986352333333333,SPI,MOSI: '0' (0x00);  MISO: '255' (0xFF)
4.986440166666666,SPI,MOSI: '0' (0x00);  MISO: '255' (0xFF)
5.001201166666666,SPI,MOSI: '0' (0x00);  MISO: '255' (0xFF)
5.001313000000000,SPI,MOSI: '0' (0x00);  MISO: '255' (0xFF)
5.001400750000000,SPI,MOSI: '0' (0x00);  MISO: '255' (0xFF)
5.001488583333333,SPI,MOSI: '0' (0x00);  MISO: '255' (0xFF)
5.001576333333333,SPI,MOSI: '0' (0x00);  MISO: '255' (0xFF)
5.001656166666667,SPI,MOSI: '0' (0x00);  MISO: '255' (0xFF)
5.001744000000000,SPI,MOSI: '0' (0x00);  MISO: '255' (0xFF)
5.001831833333333,SPI,MOSI: '0' (0x00);  MISO: '255' (0xFF)
5.001919666666667,SPI,MOSI: '0' (0x00);  MISO: '255' (0xFF)
5.002007416666666,SPI,MOSI: '0' (0x00);  MISO: '255' (0xFF)
5.002095250000000,SPI,MOSI: '0' (0x00);  MISO: '255' (0xFF)
5.002175083333333,SPI,MOSI: '0' (0x00);  MISO: '255' (0xFF)
5.002262833333333,SPI,MOSI: '0' (0x00);  MISO: '255' (0xFF)
5.002350666666667,SPI,MOSI: '0' (0x00);  MISO: '255' (0xFF)
5.002438500000000,SPI,MOSI: '0' (0x00);  MISO: '255' (0xFF)
5.002526333333333,SPI,MOSI: '0' (0x00);  MISO: '255' (0xFF)
5.017343833333333,SPI,MOSI: '0' (0x00);  MISO: '255' (0xFF)
5.017671083333333,SPI,MOSI: '0' (0x00);  MISO: '255' (0xFF)
5.017750916666667,SPI,MOSI: '0' (0x00);  MISO: '255' (0xFF)
5.017838750000000,SPI,MOSI: '0' (0x00);  MISO: '255' (0xFF)
5.017926500000000,SPI,MOSI: '0' (0x00);  MISO: '255' (0xFF)
5.018014333333333,SPI,MOSI: '0' (0x00);  MISO: '255' (0xFF)
5.018102166666667,SPI,MOSI: '0' (0x00);  MISO: '255' (0xFF)
5.018190000000000,SPI,MOSI: '0' (0x00);  MISO: '255' (0xFF)
5.018277750000000,SPI,MOSI: '0' (0x00);  MISO: '255' (0xFF)
5.018365583333333,SPI,MOSI: '0' (0x00);  MISO: '255' (0xFF)
5.018445416666666,SPI,MOSI: '0' (0x00);  MISO: '255' (0xFF)
5.018533250000000,SPI,MOSI: '0' (0x00);  MISO: '255' (0xFF)
5.018621000000000,SPI,MOSI: '0' (0x00);  MISO: '255' (0xFF)
5.018708833333333,SPI,MOSI: '0' (0x00);  MISO: '255' (0xFF)
5.018796666666667,SPI,MOSI: '0' (0x00);  MISO: '255' (0xFF)
5.018884416666666,SPI,MOSI: '0' (0x00);  MISO: '255' (0xFF)
5.033549833333334,SPI,MOSI: '0' (0x00);  MISO: '255' (0xFF)
5.033773333333333,SPI,MOSI: '0' (0x00);  MISO: '255' (0xFF)
5.033964916666666,SPI,MOSI: '0' (0x00);  MISO: '255' (0xFF)
5.034084666666667,SPI,MOSI: '0' (0x00);  MISO: '255' (0xFF)
5.034252333333334,SPI,MOSI: '0' (0x00);  MISO: '255' (0xFF)
5.034404000000000,SPI,MOSI: '0' (0x00);  MISO: '255' (0xFF)
5.034635500000000,SPI,MOSI: '0' (0x00);  MISO: '255' (0xFF)
5.034731250000000,SPI,MOSI: '0' (0x00);  MISO: '255' (0xFF)
5.035018583333334,SPI,MOSI: '0' (0x00);  MISO: '255' (0xFF)
5.035146333333334,SPI,MOSI: '0' (0x00);  MISO: '255' (0xFF)
5.035321916666667,SPI,MOSI: '0' (0x00);  MISO: '255' (0xFF)
5.035465666666667,SPI,MOSI: '0' (0x00);  MISO: '255' (0xFF)
5.035753000000000,SPI,MOSI: '0' (0x00);  MISO: '255' (0xFF)
5.035864750000000,SPI,MOSI: '0' (0x00);  MISO: '255' (0xFF)
5.036192000000000,SPI,MOSI: '0' (0x00);  MISO: '255' (0xFF)
5.036271833333333,SPI,MOSI: '0' (0x00);  MISO: '255' (0xFF)
5.049643583333333,SPI,MOSI: '0' (0x00);  MISO: '255' (0xFF)
5.050042666666666,SPI,MOSI: '0' (0x00);  MISO: '255' (0xFF)
5.050130500000000,SPI,MOSI: '0' (0x00);  MISO: '255' (0xFF)
5.050218250000000,SPI,MOSI: '0' (0x00);  MISO: '255' (0xFF)
5.050298083333334,SPI,MOSI: '0' (0x00);  MISO: '255' (0xFF)
5.050385916666666,SPI,MOSI: '0' (0x00);  MISO: '255' (0xFF)
5.050473750000000,SPI,MOSI: '0' (0x00);  MISO: '255' (0xFF)
5.050561500000000,SPI,MOSI: '0' (0x00);  MISO: '255' (0xFF)
5.050649333333333,SPI,MOSI: '0' (0x00);  MISO: '255' (0xFF)
5.050737166666667,SPI,MOSI: '0' (0x00);  MISO: '255' (0xFF)
5.050825000000000,SPI,MOSI: '0' (0x00);  MISO: '255' (0xFF)
5.050904750000000,SPI,MOSI: '0' (0x00);  MISO: '255' (0xFF)
5.050992583333334,SPI,MOSI: '0' (0x00);  MISO: '255' (0xFF)
5.051080416666666,SPI,MOSI: '0' (0x00);  MISO: '255' (0xFF)
5.051168166666667,SPI,MOSI: '0' (0x00);  MISO: '255' (0xFF)
5.051256000000000,SPI,MOSI: '0' (0x00);  MISO: '255' (0xFF)
5.065617500000000,SPI,MOSI: '0' (0x00);  MISO: '255' (0xFF)
5.066024583333333,SPI,MOSI: '0' (0x00);  MISO: '255' (0xFF)
5.066112333333334,SPI,MOSI: '0' (0x00);  MISO: '255' (0xFF)
5.066200166666667,SPI,MOSI: '0' (0x00);  MISO: '255' (0xFF)
5.066288000000000,SPI,MOSI: '0' (0x00);  MISO: '255' (0xFF)
5.066375750000000,SPI,MOSI: '0' (0x00);  MISO: '255' (0xFF)
5.066463583333333,SPI,MOSI: '0' (0x00);  MISO: '255' (0xFF)
5.066543416666667,SPI,MOSI: '0' (0x00);  MISO: '255' (0xFF)
5.066631166666666,SPI,MOSI: '0' (0x00);  MISO: '255' (0xFF)
5.066719000000000,SPI,MOSI: '0' (0x00);  MISO: '255' (0xFF)
5.066806833333334,SPI,MOSI: '0' (0x00);  MISO: '255' (0xFF)
5.066894666666666,SPI,MOSI: '0' (0x00);  MISO: '255' (0xFF)
5.066982416666667,SPI,MOSI: '0' (0x00);  MISO: '255' (0xFF)
5.067070250000000,SPI,MOSI: '0' (0x00);  MISO: '255' (0xFF)
5.067150083333333,SPI,MOSI: '0' (0x00);  MISO: '255' (0xFF)
5.067237833333333,SPI,MOSI: '0' (0x00);  MISO: '255' (0xFF)
5.081703166666666,SPI,MOSI: '0' (0x00);  MISO: '255' (0xFF)
5.082118333333334,SPI,MOSI: '0' (0x00);  MISO: '255' (0xFF)
5.082198166666666,SPI,MOSI: '0' (0x00);  MISO: '255' (0xFF)
5.082285916666667,SPI,MOSI: '0' (0x00);  MISO: '255' (0xFF)
5.082373750000000,SPI,MOSI: '0' (0x00);  MISO: '255' (0xFF)
5.082461500000000,SPI,MOSI: '0' (0x00);  MISO: '255' (0xFF)
5.082549333333334,SPI,MOSI: '0' (0x00);  MISO: '255' (0xFF)
5.082637166666666,SPI,MOSI: '0' (0x00);  MISO: '255' (0xFF)
5.082725000000000,SPI,MOSI: '0' (0x00);  MISO: '255' (0xFF)
5.082804833333333,SPI,MOSI: '0' (0x00);  MISO: '255' (0xFF)
5.082892583333333,SPI,MOSI: '0' (0x00);  MISO: '255' (0xFF)
5.082980416666667,SPI,MOSI: '0' (0x00);  MISO: '255' (0xFF)
5.083068166666667,SPI,MOSI: '0' (0x00);  MISO: '255' (0xFF)
5.083156000000000,SPI,MOSI: '0' (0x00);  MISO: '255' (0xFF)
5.083243833333333,SPI,MOSI: '0' (0x00);  MISO: '255' (0xFF)
5.083331666666667,SPI,MOSI: '0' (0x00);  MISO: '255' (0xFF)
5.097764916666667,SPI,MOSI: '0' (0x00);  MISO: '255' (0xFF)
5.098164083333334,SPI,MOSI: '0' (0x00);  MISO: '255' (0xFF)
5.098251833333333,SPI,MOSI: '0' (0x00);  MISO: '255' (0xFF)
5.098331666666667,SPI,MOSI: '0' (0x00);  MISO: '255' (0xFF)
5.098419500000000,SPI,MOSI: '0' (0x00);  MISO: '255' (0xFF)
5.098507333333333,SPI,MOSI: '0' (0x00);  MISO: '255' (0xFF)
5.098595083333334,SPI,MOSI: '0' (0x00);  MISO: '255' (0xFF)
5.098682916666666,SPI,MOSI: '0' (0x00);  MISO: '255' (0xFF)
5.098770750000000,SPI,MOSI: '0' (0x00);  MISO: '255' (0xFF)
5.098858500000000,SPI,MOSI: '0' (0x00);  MISO: '255' (0xFF)
5.098938333333333,SPI,MOSI: '0' (0x00);  MISO: '255' (0xFF)
5.099026166666667,SPI,MOSI: '0' (0x00);  MISO: '255' (0xFF)
5.099114000000000,SPI,MOSI: '0' (0x00);  MISO: '255' (0xFF)
5.099201750000000,SPI,MOSI: '0' (0x00);  MISO: '255' (0xFF)
5.099289583333333,SPI,MOSI: '0' (0x00);  MISO: '255' (0xFF)
5.099377416666667,SPI,MOSI: '0' (0x00);  MISO: '255' (0xFF)
5.113683750000000,SPI,MOSI: '0' (0x00);  MISO: '255' (0xFF)
5.114090833333333,SPI,MOSI: '0' (0x00);  MISO: '255' (0xFF)
5.114178583333334,SPI,MOSI: '0' (0x00);  MISO: '255' (0xFF)
5.114266416666666,SPI,MOSI: '0' (0x00);  MISO: '255' (0xFF)
5.114354250000000,SPI,MOSI: '0' (0x00);  MISO: '255' (0xFF)
5.114442000000000,SPI,MOSI: '0' (0x00);  MISO: '255' (0xFF)
5.114529833333333,SPI,MOSI: '0' (0x00);  MISO: '255' (0xFF)
5.114609666666666,SPI,MOSI: '0' (0x00);  MISO: '255' (0xFF)
5.114697500000000,SPI,MOSI: '0' (0x00);  MISO: '255' (0xFF)
5.114785250000000,SPI,MOSI: '0' (0x00);  MISO: '255' (0xFF)
5.114873083333333,SPI,MOSI: '0' (0x00);  MISO: '255' (0xFF)
5.114960916666667,SPI,MOSI: '0' (0x00);  MISO: '255' (0xFF)
5.115048666666667,SPI,MOSI: '0' (0x00);  MISO: '255' (0xFF)
5.115128500000000,SPI,MOSI: '0' (0x00);  MISO: '255' (0xFF)
5.115216333333334,SPI,MOSI: '0' (0x00);  MISO: '255' (0xFF)
5.115304166666666,SPI,MOSI: '0' (0x00);  MISO: '255' (0xFF)
5.129673583333333,SPI,MOSI: '0' (0x00);  MISO: '255' (0xFF)
5.130072666666667,SPI,MOSI: '0' (0x00);  MISO: '255' (0xFF)
5.130160500000000,SPI,MOSI: '0' (0x00);  MISO: '255' (0xFF)
5.130248250000000,SPI,MOSI: '0' (0x00);  MISO: '255' (0xFF)
5.130336083333333,SPI,MOSI: '0' (0x00);  MISO: '255' (0xFF)
5.130423916666667,SPI,MOSI: '0' (0x00);  MISO: '255' (0xFF)
5.130511666666667,SPI,MOSI: '0' (0x00);  MISO: '255' (0xFF)
5.130591500000000,SPI,MOSI: '0' (0x00);  MISO: '255' (0xFF)
5.130679333333333,SPI,MOSI: '0' (0x00);  MISO: '255' (0xFF)
5.130767166666667,SPI,MOSI: '0' (0x00);  MISO: '255' (0xFF)
5.130854916666666,SPI,MOSI: '0' (0x00);  MISO: '255' (0xFF)
5.130942750000000,SPI,MOSI: '0' (0x00);  MISO: '255' (0xFF)
5.131030500000000,SPI,MOSI: '0' (0x00);  MISO: '255' (0xFF)
5.131118333333333,SPI,MOSI: '0' (0x00);  MISO: '255' (0xFF)
5.131198166666667,SPI,MOSI: '0' (0x00);  MISO: '255' (0xFF)
5.131286000000000,SPI,MOSI: '0' (0x00);  MISO: '255' (0xFF)
5.145591666666666,SPI,MOSI: '0' (0x00);  MISO: '255' (0xFF)
5.145775250000000,SPI,MOSI: '0' (0x00);  MISO: '255' (0xFF)
5.145966833333333,SPI,MOSI: '0' (0x00);  MISO: '255' (0xFF)
5.146094500000000,SPI,MOSI: '0' (0x00);  MISO: '255' (0xFF)
5.146238166666667,SPI,MOSI: '0' (0x00);  MISO: '255' (0xFF)
5.146581416666667,SPI,MOSI: '0' (0x00);  MISO: '255' (0xFF)
5.146669250000000,SPI,MOSI: '0' (0x00);  MISO: '255' (0xFF)
5.146749083333333,SPI,MOSI: '0' (0x00);  MISO: '255' (0xFF)
5.146836833333333,SPI,MOSI: '0' (0x00);  MISO: '255' (0xFF)
5.146924666666667,SPI,MOSI: '0' (0x00);  MISO: '255' (0xFF)
5.147012500000000,SPI,MOSI: '0' (0x00);  MISO: '255' (0xFF)
5.147100250000000,SPI,MOSI: '0' (0x00);  MISO: '255' (0xFF)
5.147188083333333,SPI,MOSI: '0' (0x00);  MISO: '255' (0xFF)
5.147275916666667,SPI,MOSI: '0' (0x00);  MISO: '255' (0xFF)
5.147355666666667,SPI,MOSI: '0' (0x00);  MISO: '255' (0xFF)
5.147443500000000,SPI,MOSI: '0' (0x00);  MISO: '255' (0xFF)
5.161637416666666,SPI,MOSI: '0' (0x00);  MISO: '255' (0xFF)
5.162036500000000,SPI,MOSI: '0' (0x00);  MISO: '255' (0xFF)
5.162124333333334,SPI,MOSI: '0' (0x00);  MISO: '255' (0xFF)
5.162212166666666,SPI,MOSI: '0' (0x00);  MISO: '255' (0xFF)
5.162300000000000,SPI,MOSI: '0' (0x00);  MISO: '255' (0xFF)
5.162379750000000,SPI,MOSI: '0' (0x00);  MISO: '255' (0xFF)
5.162467583333333,SPI,MOSI: '0' (0x00);  MISO: '255' (0xFF)
5.162555416666667,SPI,MOSI: '0' (0x00);  MISO: '255' (0xFF)
5.162643166666666,SPI,MOSI: '0' (0x00);  MISO: '255' (0xFF)
5.162731000000000,SPI,MOSI: '0' (0x00);  MISO: '255' (0xFF)
5.162818833333334,SPI,MOSI: '0' (0x00);  MISO: '255' (0xFF)
5.162898583333333,SPI,MOSI: '0' (0x00);  MISO: '255' (0xFF)
5.162986416666667,SPI,MOSI: '0' (0x00);  MISO: '255' (0xFF)
5.163074250000000,SPI,MOSI: '0' (0x00);  MISO: '255' (0xFF)
5.163162000000000,SPI,MOSI: '0' (0x00);  MISO: '255' (0xFF)
5.163249833333333,SPI,MOSI: '0' (0x00);  MISO: '255' (0xFF)
5.177595083333333,SPI,MOSI: '0' (0x00);  MISO: s (0x73)
5.177986250000000,SPI,MOSI: '0' (0x00);  MISO: e (0x65)
5.178074000000000,SPI,MOSI: '0' (0x00);  MISO: c (0x63)
5.178153833333333,SPI,MOSI: '0' (0x00);  MISO: o (0x6F)
5.178241666666667,SPI,MOSI: '0' (0x00);  MISO: n (0x6E)
5.178329500000000,SPI,MOSI: '0' (0x00);  MISO: d (0x64)
5.178417250000000,SPI,MOSI: '0' (0x00);  MISO: ' ' (0x20)
5.178505083333333,SPI,MOSI: '0' (0x00);  MISO: p (0x70)
5.178592833333333,SPI,MOSI: '0' (0x00);  MISO: a (0x61)
5.178680666666667,SPI,MOSI: '0' (0x00);  MISO: g (0x67)
5.178760500000000,SPI,MOSI: '0' (0x00);  MISO: e (0x65)
5.178848333333334,SPI,MOSI: '0' (0x00);  MISO: ? (0x3F)
5.178936083333333,SPI,MOSI: '0' (0x00);  MISO: '255' (0xFF)
5.179023916666667,SPI,MOSI: '0' (0x00);  MISO: '255' (0xFF)
5.179111666666667,SPI,MOSI: '0' (0x00);  MISO: '255' (0xFF)
5.179199500000000,SPI,MOSI: '0' (0x00);  MISO: '255' (0xFF)
5.193593250000000,SPI,MOSI: '0' (0x00);  MISO: '255' (0xFF)
5.193976416666667,SPI,MOSI: '0' (0x00);  MISO: '255' (0xFF)
5.194064250000000,SPI,MOSI: '0' (0x00);  MISO: '255' (0xFF)
5.194152000000000,SPI,MOSI: '0' (0x00);  MISO: '255' (0xFF)
5.194239833333334,SPI,MOSI: '0' (0x00);  MISO: '255' (0xFF)
5.194327666666666,SPI,MOSI: '0' (0x00);  MISO: '255' (0xFF)
5.194407500000000,SPI,MOSI: '0' (0x00);  MISO: '255' (0xFF)
5.194495250000000,SPI,MOSI: '0' (0x00);  MISO: '255' (0xFF)
5.194583083333334,SPI,MOSI: '0' (0x00);  MISO: '255' (0xFF)
5.194670916666666,SPI,MOSI: '0' (0x00);  MISO: '255' (0xFF)
5.194758666666667,SPI,MOSI: '0' (0x00);  MISO: '255' (0xFF)
5.194846500000000,SPI,MOSI: '0' (0x00);  MISO: '255' (0xFF)
5.194934333333333,SPI,MOSI: '0' (0x00);  MISO: '255' (0xFF)
5.195014166666667,SPI,MOSI: '0' (0x00);  MISO: '255' (0xFF)
5.195101916666666,SPI,MOSI: '0' (0x00);  MISO: '255' (0xFF)
5.195189750000000,SPI,MOSI: '0' (0x00);  MISO: '255' (0xFF)
5.209503666666667,SPI,MOSI: '0' (0x00);  MISO: '255' (0xFF)
5.209902750000000,SPI,MOSI: '0' (0x00);  MISO: '255' (0xFF)
5.209990583333333,SPI,MOSI: '0' (0x00);  MISO: '255' (0xFF)
5.210070416666666,SPI,MOSI: '0' (0x00);  MISO: '255' (0xFF)
5.210158166666667,SPI,MOSI: '0' (0x00);  MISO: '255' (0xFF)
5.210246000000000,SPI,MOSI: '0' (0x00);  MISO: '255' (0xFF)
5.210333833333333,SPI,MOSI: '0' (0x00);  MISO: '255' (0xFF)
5.210421583333333,SPI,MOSI: '0' (0x00);  MISO: '255' (0xFF)
5.210509416666667,SPI,MOSI: '0' (0x00);  MISO: '255' (0xFF)
5.210597250000000,SPI,MOSI: '0' (0x00);  MISO: '255' (0xFF)
5.210677083333334,SPI,MOSI: '0' (0x00);  MISO: '255' (0xFF)
5.210764833333333,SPI,MOSI: '0' (0x00);  MISO: '255' (0xFF)
5.210852666666667,SPI,MOSI: '0' (0x00);  MISO: '255' (0xFF)
5.210940500000000,SPI,MOSI: '0' (0x00);  MISO: '255' (0xFF)
5.211028250000000,SPI,MOSI: '0' (0x00);  MISO: '255' (0xFF)
5.211116083333334,SPI,MOSI: '0' (0x00);  MISO: '255' (0xFF)
5.225549666666667,SPI,MOSI: '0' (0x00);  MISO: '255' (0xFF)
5.225972750000000,SPI,MOSI: '0' (0x00);  MISO: '255' (0xFF)
5.226060583333333,SPI,MOSI: '0' (0x00);  MISO: '255' (0xFF)
5.226140416666667,SPI,MOSI: '0' (0x00);  MISO: '255' (0xFF)
5.226228166666667,SPI,MOSI: '0' (0x00);  MISO: '255' (0xFF)
5.226316000000000,SPI,MOSI: '0' (0x00);  MISO: '255' (0xFF)
5.226403833333333,SPI,MOSI: '0' (0x00);  MISO: '255' (0xFF)
5.226491583333333,SPI,MOSI: '0' (0x00);  MISO: '255' (0xFF)
5.226579416666667,SPI,MOSI: '0' (0x00);  MISO: '255' (0xFF)
5.226667250000000,SPI,MOSI: '0' (0x00);  MISO: '255' (0xFF)
5.226747083333334,SPI,MOSI: '0' (0x00);  MISO: '255' (0xFF)
5.226834833333333,SPI,MOSI: '0' (0x00);  MISO: '255' (0xFF)
5.226922666666667,SPI,MOSI: '0' (0x00);  MISO: '255' (0xFF)
5.227010500000000,SPI,MOSI: '0' (0x00);  MISO: '255' (0xFF)
5.227098250000000,SPI,MOSI: '0' (0x00);  MISO: '255' (0xFF)
5.227186083333334,SPI,MOSI: '0' (0x00);  MISO: '255' (0xFF)
5.241292666666666,SPI,MOSI: '0' (0x00);  MISO: '255' (0xFF)
5.241667833333334,SPI,MOSI: '0' (0x00);  MISO: '255' (0xFF)
5.241755666666666,SPI,MOSI: '0' (0x00);  MISO: '255' (0xFF)
5.241843416666667,SPI,MOSI: '0' (0x00);  MISO: '255' (0xFF)
5.241931250000000,SPI,MOSI: '0' (0x00);  MISO: '255' (0xFF)
5.242019083333333,SPI,MOSI: '0' (0x00);  MISO: '255' (0xFF)
5.242098916666666,SPI,MOSI: '0' (0x00);  MISO: '255' (0xFF)
5.242186666666667,SPI,MOSI: '0' (0x00);  MISO: '255' (0xFF)
5.242274500000000,SPI,MOSI: '0' (0x00);  MISO: '255' (0xFF)
5.242362333333333,SPI,MOSI: '0' (0x00);  MISO: '255' (0xFF)
5.242450083333333,SPI,MOSI: '0' (0x00);  MISO: '255' (0xFF)
5.242537916666667,SPI,MOSI: '0' (0x00);  MISO: '255' (0xFF)
5.242617750000000,SPI,MOSI: '0' (0x00);  MISO: '255' (0xFF)
5.242705583333334,SPI,MOSI: '0' (0x00);  MISO: '255' (0xFF)
5.242793333333333,SPI,MOSI: '0' (0x00);  MISO: '255' (0xFF)
5.242881166666667,SPI,MOSI: '0' (0x00);  MISO: '255' (0xFF)
5.257537916666666,SPI,MOSI: '0' (0x00);  MISO: '255' (0xFF)
5.257968916666667,SPI,MOSI: '0' (0x00);  MISO: '255' (0xFF)
5.258048750000000,SPI,MOSI: '0' (0x00);  MISO: '255' (0xFF)
5.258136500000000,SPI,MOSI: '0' (0x00);  MISO: '255' (0xFF)
5.258224333333334,SPI,MOSI: '0' (0x00);  MISO: '255' (0xFF)
5.258312166666666,SPI,MOSI: '0' (0x00);  MISO: '255' (0xFF)
5.258400000000000,SPI,MOSI: '0' (0x00);  MISO: '255' (0xFF)
5.258487750000000,SPI,MOSI: '0' (0x00);  MISO: '255' (0xFF)
5.258575583333333,SPI,MOSI: '0' (0x00);  MISO: '255' (0xFF)
5.258655333333333,SPI,MOSI: '0' (0x00);  MISO: '255' (0xFF)
5.258743166666667,SPI,MOSI: '0' (0x00);  MISO: '255' (0xFF)
5.258831000000000,SPI,MOSI: '0' (0x00);  MISO: '255' (0xFF)
5.258918833333333,SPI,MOSI: '0' (0x00);  MISO: '255' (0xFF)
5.259006583333333,SPI,MOSI: '0' (0x00);  MISO: '255' (0xFF)
5.259094416666667,SPI,MOSI: '0' (0x00);  MISO: '255' (0xFF)
5.259182166666666,SPI,MOSI: '0' (0x00);  MISO: '255' (0xFF)
5.273528000000000,SPI,MOSI: '0' (0x00);  MISO: '255' (0xFF)
5.273967000000000,SPI,MOSI: '0' (0x00);  MISO: '255' (0xFF)
5.274054833333333,SPI,MOSI: '0' (0x00);  MISO: '255' (0xFF)
5.274142666666667,SPI,MOSI: '0' (0x00);  MISO: '255' (0xFF)
5.274230416666667,SPI,MOSI: '0' (0x00);  MISO: '255' (0xFF)
5.274318250000000,SPI,MOSI: '0' (0x00);  MISO: '255' (0xFF)
5.274406083333333,SPI,MOSI: '0' (0x00);  MISO: '255' (0xFF)
5.274493833333334,SPI,MOSI: '0' (0x00);  MISO: '255' (0xFF)
5.274573666666667,SPI,MOSI: '0' (0x00);  MISO: '255' (0xFF)
5.274661500000000,SPI,MOSI: '0' (0x00);  MISO: '255' (0xFF)
5.274749333333333,SPI,MOSI: '0' (0x00);  MISO: '255' (0xFF)
5.274837083333333,SPI,MOSI: '0' (0x00);  MISO: '255' (0xFF)
5.274924916666667,SPI,MOSI: '0' (0x00);  MISO: '255' (0xFF)
5.275012666666667,SPI,MOSI: '0' (0x00);  MISO: '255' (0xFF)
5.275100500000000,SPI,MOSI: '0' (0x00);  MISO: '255' (0xFF)
5.275180333333333,SPI,MOSI: '0' (0x00);  MISO: '255' (0xFF)
5.289534166666667,SPI,MOSI: '0' (0x00);  MISO: '255' (0xFF)
5.289973250000000,SPI,MOSI: '0' (0x00);  MISO: '255' (0xFF)
5.290061000000000,SPI,MOSI: '0' (0x00);  MISO: '255' (0xFF)
5.290140833333333,SPI,MOSI: '0' (0x00);  MISO: '255' (0xFF)
5.290228666666667,SPI,MOSI: '0' (0x00);  MISO: '255' (0xFF)
5.290316500000000,SPI,MOSI: '0' (0x00);  MISO: '255' (0xFF)
5.290404250000000,SPI,MOSI: '0' (0x00);  MISO: '255' (0xFF)
5.290492083333334,SPI,MOSI: '0' (0x00);  MISO: '255' (0xFF)
5.290579916666666,SPI,MOSI: '0' (0x00);  MISO: '255' (0xFF)
5.290667666666667,SPI,MOSI: '0' (0x00);  MISO: '255' (0xFF)
5.290747500000000,SPI,MOSI: '0' (0x00);  MISO: '255' (0xFF)
5.290835333333333,SPI,MOSI: '0' (0x00);  MISO: '255' (0xFF)
5.290923166666667,SPI,MOSI: '0' (0x00);  MISO: '255' (0xFF)
5.291010916666667,SPI,MOSI: '0' (0x00);  MISO: '255' (0xFF)
5.291098750000000,SPI,MOSI: '0' (0x00);  MISO: '255' (0xFF)
5.291186583333333,SPI,MOSI: '0' (0x00);  MISO: '255' (0xFF)
5.305420333333333,SPI,MOSI: '0' (0x00);  MISO: '255' (0xFF)
5.305819416666667,SPI,MOSI: '0' (0x00);  MISO: '255' (0xFF)
5.305907250000000,SPI,MOSI: '0' (0x00);  MISO: '255' (0xFF)
5.305995000000000,SPI,MOSI: '0' (0x00);  MISO: '255' (0xFF)
5.306082833333333,SPI,MOSI: '0' (0x00);  MISO: '255' (0xFF)
5.306170666666667,SPI,MOSI: '0' (0x00);  MISO: '255' (0xFF)
5.306258416666667,SPI,MOSI: '0' (0x00);  MISO: '255' (0xFF)
5.306338250000000,SPI,MOSI: '0' (0x00);  MISO: '255' (0xFF)
5.306426083333333,SPI,MOSI: '0' (0x00);  MISO: '255' (0xFF)
5.306513833333334,SPI,MOSI: '0' (0x00);  MISO: '255' (0xFF)
5.306601666666666,SPI,MOSI: '0' (0x00);  MISO: '255' (0xFF)
5.306689500000000,SPI,MOSI: '0' (0x00);  MISO: '255' (0xFF)
5.306777333333334,SPI,MOSI: '0' (0x00);  MISO: '255' (0xFF)
5.306865083333333,SPI,MOSI: '0' (0x00);  MISO: '255' (0xFF)
5.306944916666667,SPI,MOSI: '0' (0x00);  MISO: '255' (0xFF)
5.307032750000000,SPI,MOSI: '0' (0x00);  MISO: '255' (0xFF)
5.321561916666667,SPI,MOSI: '0' (0x00);  MISO: '255' (0xFF)
5.321801416666666,SPI,MOSI: '0' (0x00);  MISO: '255' (0xFF)
5.321961083333333,SPI,MOSI: '0' (0x00);  MISO: '255' (0xFF)
5.322288333333334,SPI,MOSI: '0' (0x00);  MISO: '255' (0xFF)
5.322376166666666,SPI,MOSI: '0' (0x00);  MISO: '255' (0xFF)
5.322464000000000,SPI,MOSI: '0' (0x00);  MISO: '255' (0xFF)
5.322551750000000,SPI,MOSI: '0' (0x00);  MISO: '255' (0xFF)
5.322639583333333,SPI,MOSI: '0' (0x00);  MISO: '255' (0xFF)
5.322727333333333,SPI,MOSI: '0' (0x00);  MISO: '255' (0xFF)
5.322815166666667,SPI,MOSI: '0' (0x00);  MISO: '255' (0xFF)
5.322895000000000,SPI,MOSI: '0' (0x00);  MISO: '255' (0xFF)
5.322982833333334,SPI,MOSI: '0' (0x00);  MISO: '255' (0xFF)
5.323070583333333,SPI,MOSI: '0' (0x00);  MISO: '255' (0xFF)
5.323158416666667,SPI,MOSI: '0' (0x00);  MISO: '255' (0xFF)
